T13A0 000:005.235   SEGGER J-Link V6.86 Log File
T13A0 000:005.401   DLL Compiled: Sep 24 2020 17:31:31
T13A0 000:005.405   Logging started @ 2026-01-13 14:28
T13A0 000:005.411 - 5.413ms
T13A0 000:005.418 JLINK_SetWarnOutHandler(...)
T13A0 000:005.437 - 0.020ms
T13A0 000:005.442 JLINK_OpenEx(...)
T13A0 000:008.049   Firmware: J-Link Pro V4 V11 PLUS Feb compiled 20 2025 16:24:17 
T13A0 000:008.208   Decompressing FW timestamp took 120 us
T13A0 000:010.539   Hardware: V11.00
T13A0 000:010.553   S/N: 601023964
T13A0 000:010.559   OEM: SEGGER
T13A0 000:010.564   Feature(s): FlashBP, GDB, JFlash, FlashDL, RDI
T13A0 000:011.649   TELNET listener socket opened on port 19021
T13A0 000:011.773   WEBSRV Starting webserver
T13A0 000:012.003   WEBSRV Webserver running on local port 19080
T13A0 000:012.016 - 6.579ms returns "O.K."
T13A0 000:012.037 JLINK_GetEmuCaps()
T13A0 000:012.042 - 0.007ms returns 0xB9FF7BBF
T13A0 000:012.054 JLINK_TIF_GetAvailable(...)
T13A0 000:012.163 - 0.118ms
T13A0 000:012.179 JLINK_SetErrorOutHandler(...)
T13A0 000:012.184 - 0.006ms
T13A0 000:012.202 JLINK_ExecCommand("ProjectFile = "d:\Code\py32_project\03_remote_control\project\MDK-ARM\JLinkSettings.ini"", ...). 
T13A0 000:020.135   Device "CORTEX-M0" selected.
T13A0 000:020.450 - 8.254ms returns 0x00
T13A0 000:020.614 JLINK_ExecCommand("Device = PY32F002Bx5", ...). 
T13A0 000:020.778   Device "CORTEX-M0" selected.
T13A0 000:020.967 - 0.350ms returns 0x00
T13A0 000:020.980 JLINK_GetHardwareVersion()
T13A0 000:020.984 - 0.006ms returns 110000
T13A0 000:020.995 JLINK_GetDLLVersion()
T13A0 000:020.998 - 0.005ms returns 68600
T13A0 000:021.005 JLINK_GetOEMString(...)
T13A0 000:021.010 JLINK_GetFirmwareString(...)
T13A0 000:021.014 - 0.005ms
T13A0 000:021.488 JLINK_GetDLLVersion()
T13A0 000:021.495 - 0.009ms returns 68600
T13A0 000:021.500 JLINK_GetCompileDateTime()
T13A0 000:021.504 - 0.005ms
T13A0 000:021.642 JLINK_GetFirmwareString(...)
T13A0 000:021.646 - 0.006ms
T13A0 000:021.780 JLINK_GetHardwareVersion()
T13A0 000:021.785 - 0.006ms returns 110000
T13A0 000:021.893 JLINK_GetSN()
T13A0 000:021.897 - 0.006ms returns 601023964
T13A0 000:022.022 JLINK_GetOEMString(...)
T13A0 000:022.266 JLINK_TIF_Select(JLINKARM_TIF_SWD)
T13A0 000:022.912 - 0.650ms returns 0x00
T13A0 000:022.920 JLINK_HasError()
T13A0 000:022.931 JLINK_SetSpeed(1000)
T13A0 000:023.048 - 0.120ms
T13A0 000:023.054 JLINK_GetId()
T13A0 000:024.289   Found SW-DP with ID 0x0BC11477
T13A0 000:027.020   DPIDR: 0x0BC11477
T13A0 000:027.136   Scanning AP map to find all available APs
T13A0 000:027.869   AP[1]: Stopped AP scan as end of AP map has been reached
T13A0 000:027.992   AP[0]: AHB-AP (IDR: 0x04770031)
T13A0 000:028.115   Iterating through AP map to find AHB-AP to use
T13A0 000:029.020   AP[0]: Core found
T13A0 000:029.131   AP[0]: AHB-AP ROM base: 0xE00FF000
T13A0 000:029.678   CPUID register: 0x410CC601. Implementer code: 0x41 (ARM)
T13A0 000:029.797   Found Cortex-M0 r0p1, Little endian.
T13A0 000:131.020   -- Max. mem block: 0x00005C40
T13A0 000:131.053   CPU_ReadMem(4 bytes @ 0xE000EDF0)
T13A0 000:131.812   CPU_WriteMem(4 bytes @ 0xE000EDF0)
T13A0 000:132.595   CPU_ReadMem(4 bytes @ 0xE0002000)
T13A0 000:133.505   FPUnit: 4 code (BP) slots and 0 literal slots
T13A0 000:133.514   CPU_ReadMem(4 bytes @ 0xE000EDFC)
T13A0 000:134.135   CPU_WriteMem(4 bytes @ 0xE000EDFC)
T13A0 000:134.756   CPU_ReadMem(4 bytes @ 0xE0001000)
T13A0 000:135.338   CPU_WriteMem(4 bytes @ 0xE0001000)
T13A0 000:136.003   CoreSight components:
T13A0 000:136.178   ROMTbl[0] @ E00FF000
T13A0 000:136.189   CPU_ReadMem(64 bytes @ 0xE00FF000)
T13A0 000:137.540   CPU_ReadMem(32 bytes @ 0xE000EFE0)
T13A0 000:138.709   ROMTbl[0][0]: E000E000, CID: B105E00D, PID: 000BB008 SCS
T13A0 000:138.718   CPU_ReadMem(32 bytes @ 0xE0001FE0)
T13A0 000:139.797   ROMTbl[0][1]: E0001000, CID: B105E00D, PID: 000BB00A DWT
T13A0 000:139.805   CPU_ReadMem(32 bytes @ 0xE0002FE0)
T13A0 000:141.137   ROMTbl[0][2]: E0002000, CID: B105E00D, PID: 000BB00B FPB
T13A0 000:141.465 - 118.465ms returns 0x0BC11477
T13A0 000:141.536 JLINK_GetDLLVersion()
T13A0 000:141.540 - 0.005ms returns 68600
T13A0 000:141.544 JLINK_CORE_GetFound()
T13A0 000:141.549 - 0.006ms returns 0x60000FF
T13A0 000:141.554 JLINK_GetDebugInfo(0x100 = JLINKARM_ROM_TABLE_ADDR_INDEX)
T13A0 000:141.560   Value=0xE00FF000
T13A0 000:141.565 - 0.012ms returns 0
T13A0 000:141.744 JLINK_GetDebugInfo(0x100 = JLINKARM_ROM_TABLE_ADDR_INDEX)
T13A0 000:141.749   Value=0xE00FF000
T13A0 000:141.754 - 0.011ms returns 0
T13A0 000:141.759 JLINK_GetDebugInfo(0x101 = JLINKARM_DEBUG_INFO_ETM_ADDR_INDEX)
T13A0 000:141.763   Value=0x00000000
T13A0 000:141.768 - 0.010ms returns 0
T13A0 000:141.776 JLINK_ReadMemEx(0xE0041FF0, 0x10 Bytes, Flags = 0x02000004)
T13A0 000:141.792   CPU_ReadMem(16 bytes @ 0xE0041FF0)
T13A0 000:142.530   Data:  00 00 00 00 00 00 00 00 00 00 00 00 00 00 00 00
T13A0 000:142.541 - 0.767ms returns 16 (0x10)
T13A0 000:142.548 JLINK_GetDebugInfo(0x102 = JLINKARM_DEBUG_INFO_MTB_ADDR_INDEX)
T13A0 000:142.552   Value=0x00000000
T13A0 000:142.558 - 0.011ms returns 0
T13A0 000:142.562 JLINK_GetDebugInfo(0x103 = JLINKARM_DEBUG_INFO_TPIU_ADDR_INDEX)
T13A0 000:142.566   Value=0x00000000
T13A0 000:142.572 - 0.011ms returns 0
T13A0 000:142.576 JLINK_ReadMemEx(0xE0040FF0, 0x10 Bytes, Flags = 0x02000004)
T13A0 000:142.584   CPU_ReadMem(16 bytes @ 0xE0040FF0)
T13A0 000:143.301   Data:  00 00 00 00 00 00 00 00 00 00 00 00 00 00 00 00
T13A0 000:143.311 - 0.736ms returns 16 (0x10)
T13A0 000:143.317 JLINK_GetDebugInfo(0x104 = JLINKARM_DEBUG_INFO_ITM_ADDR_INDEX)
T13A0 000:143.321   Value=0xE0000000
T13A0 000:143.326 - 0.010ms returns 0
T13A0 000:143.330 JLINK_GetDebugInfo(0x105 = JLINKARM_DEBUG_INFO_DWT_ADDR_INDEX)
T13A0 000:143.334   Value=0xE0001000
T13A0 000:143.338 - 0.009ms returns 0
T13A0 000:143.342 JLINK_GetDebugInfo(0x106 = JLINKARM_DEBUG_INFO_FPB_ADDR_INDEX)
T13A0 000:143.346   Value=0xE0002000
T13A0 000:143.351 - 0.010ms returns 0
T13A0 000:143.355 JLINK_GetDebugInfo(0x107 = JLINKARM_DEBUG_INFO_NVIC_ADDR_INDEX)
T13A0 000:143.358   Value=0xE000E000
T13A0 000:143.363 - 0.009ms returns 0
T13A0 000:143.367 JLINK_GetDebugInfo(0x10C = JLINKARM_DEBUG_INFO_DBG_ADDR_INDEX)
T13A0 000:143.371   Value=0xE000EDF0
T13A0 000:143.375 - 0.010ms returns 0
T13A0 000:143.379 JLINK_GetDebugInfo(0x01 = Unknown)
T13A0 000:143.383   Value=0x00000000
T13A0 000:143.388 - 0.010ms returns 0
T13A0 000:143.392 JLINK_ReadMemU32(0xE000ED00, 0x1 Items)
T13A0 000:143.399   CPU_ReadMem(4 bytes @ 0xE000ED00)
T13A0 000:143.973   Data:  01 C6 0C 41
T13A0 000:143.983   Debug reg: CPUID
T13A0 000:143.988 - 0.597ms returns 1 (0x1)
T13A0 000:143.993 JLINK_GetDebugInfo(0x10F = JLINKARM_DEBUG_INFO_HAS_CORTEX_M_SECURITY_EXT_INDEX)
T13A0 000:143.998   Value=0x00000000
T13A0 000:144.002 - 0.010ms returns 0
T13A0 000:144.007 JLINK_HasError()
T13A0 000:144.012 JLINK_SetResetType(JLINKARM_CM3_RESET_TYPE_NORMAL)
T13A0 000:144.016 - 0.005ms returns JLINKARM_CM3_RESET_TYPE_NORMAL
T13A0 000:144.020 JLINK_Reset()
T13A0 000:144.035   CPU is running
T13A0 000:144.041   CPU_WriteMem(4 bytes @ 0xE000EDF0)
T13A0 000:144.503   CPU is running
T13A0 000:144.515   CPU_WriteMem(4 bytes @ 0xE000EDFC)
T13A0 000:145.902   Reset: Halt core after reset via DEMCR.VC_CORERESET.
T13A0 000:146.665   Reset: Reset device via AIRCR.SYSRESETREQ.
T13A0 000:146.674   CPU is running
T13A0 000:146.683   CPU_WriteMem(4 bytes @ 0xE000ED0C)
T13A0 000:200.142   CPU_ReadMem(4 bytes @ 0xE000EDF0)
T13A0 000:200.842   CPU_ReadMem(4 bytes @ 0xE000EDF0)
T13A0 000:201.534   CPU is running
T13A0 000:201.546   CPU_WriteMem(4 bytes @ 0xE000EDF0)
T13A0 000:202.278   CPU is running
T13A0 000:202.289   CPU_WriteMem(4 bytes @ 0xE000EDFC)
T13A0 000:208.024   CPU_ReadMem(4 bytes @ 0xE000EDF0)
T13A0 000:214.982   CPU_WriteMem(4 bytes @ 0xE0002000)
T13A0 000:215.776   CPU_ReadMem(4 bytes @ 0xE000EDFC)
T13A0 000:216.648   CPU_ReadMem(4 bytes @ 0xE0001000)
T13A0 000:217.385   CPU_WriteMem(4 bytes @ 0xE0001000)
T13A0 000:218.120 - 74.106ms
T13A0 000:218.139 JLINK_Halt()
T13A0 000:218.147 - 0.011ms returns 0x00
T13A0 000:218.153 JLINK_ReadMemU32(0xE000EDF0, 0x1 Items)
T13A0 000:218.166   CPU_ReadMem(4 bytes @ 0xE000EDF0)
T13A0 000:218.860   Data:  03 00 03 00
T13A0 000:218.870   Debug reg: DHCSR
T13A0 000:218.875 - 0.723ms returns 1 (0x1)
T13A0 000:218.888 JLINK_WriteU32_64(0xE000EDF0, 0xA05F0003)
T13A0 000:218.894   Debug reg: DHCSR
T13A0 000:218.908   CPU_WriteMem(4 bytes @ 0xE000EDF0)
T13A0 000:219.514 - 0.635ms returns 0 (0x00000000)
T13A0 000:219.534 JLINK_WriteU32_64(0xE000EDFC, 0x01000000)
T13A0 000:219.539   Debug reg: DEMCR
T13A0 000:219.553   CPU_WriteMem(4 bytes @ 0xE000EDFC)
T13A0 000:220.207 - 0.681ms returns 0 (0x00000000)
T13A0 000:220.763 JLINK_GetHWStatus(...)
T13A0 000:221.026 - 0.269ms returns 0
T13A0 000:221.346 JLINK_GetNumBPUnits(Type = 0xFFFFFF00)
T13A0 000:221.351 - 0.006ms returns 0x04
T13A0 000:221.355 JLINK_GetNumBPUnits(Type = 0xF0)
T13A0 000:221.359 - 0.005ms returns 0x2000
T13A0 000:221.363 JLINK_GetNumWPUnits()
T13A0 000:221.366 - 0.005ms returns 2
T13A0 000:221.654 JLINK_GetSpeed()
T13A0 000:221.658 - 0.005ms returns 1000
T13A0 000:221.858 JLINK_ReadMemU32(0xE000E004, 0x1 Items)
T13A0 000:221.868   CPU_ReadMem(4 bytes @ 0xE000E004)
T13A0 000:222.515   Data:  00 00 00 00
T13A0 000:222.528 - 0.672ms returns 1 (0x1)
T13A0 000:222.542 JLINK_Halt()
T13A0 000:222.557 - 0.018ms returns 0x00
T13A0 000:222.564 JLINK_IsHalted()
T13A0 000:222.571 - 0.008ms returns TRUE
T13A0 000:223.346 JLINK_WriteMem(0x20000000, 0x290 Bytes, ...)
T13A0 000:223.354   Data:  00 BE 0A E0 0D 78 2D 06 68 40 08 24 40 00 00 D3 ...
T13A0 000:223.578   CPU_WriteMem(656 bytes @ 0x20000000)
T13A0 000:232.253 - 8.926ms returns 0x290
T13A0 000:232.318 JLINK_HasError()
T13A0 000:232.325 JLINK_WriteReg(R0, 0x08000000)
T13A0 000:232.334 - 0.009ms returns 0
T13A0 000:232.338 JLINK_WriteReg(R1, 0x00B71B00)
T13A0 000:232.342 - 0.005ms returns 0
T13A0 000:232.346 JLINK_WriteReg(R2, 0x00000001)
T13A0 000:232.349 - 0.005ms returns 0
T13A0 000:232.353 JLINK_WriteReg(R3, 0x00000000)
T13A0 000:232.357 - 0.005ms returns 0
T13A0 000:232.361 JLINK_WriteReg(R4, 0x00000000)
T13A0 000:232.364 - 0.005ms returns 0
T13A0 000:232.368 JLINK_WriteReg(R5, 0x00000000)
T13A0 000:232.372 - 0.005ms returns 0
T13A0 000:232.376 JLINK_WriteReg(R6, 0x00000000)
T13A0 000:232.379 - 0.005ms returns 0
T13A0 000:232.383 JLINK_WriteReg(R7, 0x00000000)
T13A0 000:232.387 - 0.005ms returns 0
T13A0 000:232.391 JLINK_WriteReg(R8, 0x00000000)
T13A0 000:232.404 - 0.014ms returns 0
T13A0 000:232.408 JLINK_WriteReg(R9, 0x20000288)
T13A0 000:232.411 - 0.005ms returns 0
T13A0 000:232.415 JLINK_WriteReg(R10, 0x00000000)
T13A0 000:232.419 - 0.005ms returns 0
T13A0 000:232.423 JLINK_WriteReg(R11, 0x00000000)
T13A0 000:232.427 - 0.005ms returns 0
T13A0 000:232.430 JLINK_WriteReg(R12, 0x00000000)
T13A0 000:232.434 - 0.005ms returns 0
T13A0 000:232.438 JLINK_WriteReg(R13 (SP), 0x20000800)
T13A0 000:232.442 - 0.006ms returns 0
T13A0 000:232.446 JLINK_WriteReg(R14, 0x20000001)
T13A0 000:232.450 - 0.005ms returns 0
T13A0 000:232.454 JLINK_WriteReg(R15 (PC), 0x20000022)
T13A0 000:232.459 - 0.007ms returns 0
T13A0 000:232.463 JLINK_WriteReg(XPSR, 0x01000000)
T13A0 000:232.467 - 0.005ms returns 0
T13A0 000:232.471 JLINK_WriteReg(MSP, 0x20000800)
T13A0 000:232.475 - 0.005ms returns 0
T13A0 000:232.479 JLINK_WriteReg(PSP, 0x20000800)
T13A0 000:232.482 - 0.005ms returns 0
T13A0 000:232.486 JLINK_WriteReg(CFBP, 0x00000000)
T13A0 000:232.490 - 0.005ms returns 0
T13A0 000:232.494 JLINK_SetBPEx(Addr = 0x20000000, Type = 0xFFFFFFF2)
T13A0 000:232.503   CPU_ReadMem(4 bytes @ 0x20000000)
T13A0 000:233.247   CPU_WriteMem(4 bytes @ 0x20000000)
T13A0 000:234.006   CPU_ReadMem(4 bytes @ 0x20000000)
T13A0 000:234.755   CPU_WriteMem(4 bytes @ 0x20000000)
T13A0 000:235.464   CPU_ReadMem(2 bytes @ 0x20000000)
T13A0 000:236.122 - 3.639ms returns 0x00000001
T13A0 000:236.139 JLINK_Go()
T13A0 000:236.148   CPU_WriteMem(2 bytes @ 0x20000000)
T13A0 000:236.879   CPU_ReadMem(4 bytes @ 0xE0001000)
T13A0 000:237.515   CPU_WriteMem(4 bytes @ 0xE0001000)
T13A0 000:237.529   CPU_WriteMem(4 bytes @ 0xE0002008)
T13A0 000:237.535   CPU_WriteMem(4 bytes @ 0xE000200C)
T13A0 000:237.540   CPU_WriteMem(4 bytes @ 0xE0002010)
T13A0 000:237.545   CPU_WriteMem(4 bytes @ 0xE0002014)
T13A0 000:239.503   CPU_WriteMem(4 bytes @ 0xE0001004)
T13A0 000:245.494 - 9.377ms
T13A0 000:245.530 JLINK_IsHalted()
T13A0 000:251.638   CPU_ReadMem(2 bytes @ 0x20000000)
T13A0 000:252.495 - 6.989ms returns TRUE
T13A0 000:252.535 JLINK_ReadReg(R15 (PC))
T13A0 000:252.545 - 0.011ms returns 0x20000000
T13A0 000:252.549 JLINK_ClrBPEx(BPHandle = 0x00000001)
T13A0 000:252.553 - 0.005ms returns 0x00
T13A0 000:252.558 JLINK_ReadReg(R0)
T13A0 000:252.562 - 0.005ms returns 0x00000000
T13A0 000:252.604 JLINK_HasError()
T13A0 000:252.625 JLINK_WriteReg(R0, 0x08000000)
T13A0 000:252.629 - 0.006ms returns 0
T13A0 000:252.634 JLINK_WriteReg(R1, 0x00B71B00)
T13A0 000:252.638 - 0.005ms returns 0
T13A0 000:252.643 JLINK_WriteReg(R2, 0x00000001)
T13A0 000:252.647 - 0.005ms returns 0
T13A0 000:252.651 JLINK_WriteReg(R3, 0x00000000)
T13A0 000:252.655 - 0.005ms returns 0
T13A0 000:252.659 JLINK_WriteReg(R4, 0x00000000)
T13A0 000:252.663 - 0.005ms returns 0
T13A0 000:252.668 JLINK_WriteReg(R5, 0x00000000)
T13A0 000:252.672 - 0.005ms returns 0
T13A0 000:252.686 JLINK_WriteReg(R6, 0x00000000)
T13A0 000:252.706 - 0.023ms returns 0
T13A0 000:252.712 JLINK_WriteReg(R7, 0x00000000)
T13A0 000:252.717 - 0.007ms returns 0
T13A0 000:252.725 JLINK_WriteReg(R8, 0x00000000)
T13A0 000:252.731 - 0.008ms returns 0
T13A0 000:252.741 JLINK_WriteReg(R9, 0x20000288)
T13A0 000:252.746 - 0.007ms returns 0
T13A0 000:252.766 JLINK_WriteReg(R10, 0x00000000)
T13A0 000:252.771 - 0.007ms returns 0
T13A0 000:252.777 JLINK_WriteReg(R11, 0x00000000)
T13A0 000:252.790 - 0.015ms returns 0
T13A0 000:252.798 JLINK_WriteReg(R12, 0x00000000)
T13A0 000:252.803 - 0.007ms returns 0
T13A0 000:252.808 JLINK_WriteReg(R13 (SP), 0x20000800)
T13A0 000:252.813 - 0.006ms returns 0
T13A0 000:252.818 JLINK_WriteReg(R14, 0x20000001)
T13A0 000:252.823 - 0.006ms returns 0
T13A0 000:252.828 JLINK_WriteReg(R15 (PC), 0x2000007E)
T13A0 000:252.833 - 0.006ms returns 0
T13A0 000:252.838 JLINK_WriteReg(XPSR, 0x01000000)
T13A0 000:252.842 - 0.007ms returns 0
T13A0 000:252.850 JLINK_WriteReg(MSP, 0x20000800)
T13A0 000:252.855 - 0.007ms returns 0
T13A0 000:252.943 JLINK_WriteReg(PSP, 0x20000800)
T13A0 000:252.963 - 0.021ms returns 0
T13A0 000:252.968 JLINK_WriteReg(CFBP, 0x00000000)
T13A0 000:252.972 - 0.005ms returns 0
T13A0 000:252.977 JLINK_SetBPEx(Addr = 0x20000000, Type = 0xFFFFFFF2)
T13A0 000:252.982 - 0.006ms returns 0x00000002
T13A0 000:252.986 JLINK_Go()
T13A0 000:252.997   CPU_ReadMem(4 bytes @ 0xE0001000)
T13A0 000:253.669   CPU_WriteMem(4 bytes @ 0xE0001000)
T13A0 000:259.713 - 6.745ms
T13A0 000:259.738 JLINK_IsHalted()
T13A0 000:263.513 - 3.793ms returns FALSE
T13A0 000:263.539 JLINK_HasError()
T13A0 000:270.489 JLINK_IsHalted()
T13A0 000:277.108   CPU_ReadMem(2 bytes @ 0x20000000)
T13A0 000:277.628 - 7.151ms returns TRUE
T13A0 000:277.651 JLINK_ReadReg(R15 (PC))
T13A0 000:277.668 - 0.018ms returns 0x20000000
T13A0 000:277.675 JLINK_ClrBPEx(BPHandle = 0x00000002)
T13A0 000:277.679 - 0.006ms returns 0x00
T13A0 000:277.684 JLINK_ReadReg(R0)
T13A0 000:277.688 - 0.006ms returns 0x00000000
T13A0 000:328.737 JLINK_HasError()
T13A0 000:328.764 JLINK_WriteReg(R0, 0x00000001)
T13A0 000:328.773 - 0.010ms returns 0
T13A0 000:328.778 JLINK_WriteReg(R1, 0x00B71B00)
T13A0 000:328.782 - 0.005ms returns 0
T13A0 000:328.786 JLINK_WriteReg(R2, 0x00000001)
T13A0 000:328.790 - 0.005ms returns 0
T13A0 000:328.794 JLINK_WriteReg(R3, 0x00000000)
T13A0 000:328.797 - 0.005ms returns 0
T13A0 000:328.801 JLINK_WriteReg(R4, 0x00000000)
T13A0 000:328.805 - 0.005ms returns 0
T13A0 000:328.809 JLINK_WriteReg(R5, 0x00000000)
T13A0 000:328.812 - 0.005ms returns 0
T13A0 000:328.816 JLINK_WriteReg(R6, 0x00000000)
T13A0 000:328.820 - 0.005ms returns 0
T13A0 000:328.824 JLINK_WriteReg(R7, 0x00000000)
T13A0 000:328.880 - 0.057ms returns 0
T13A0 000:328.884 JLINK_WriteReg(R8, 0x00000000)
T13A0 000:328.888 - 0.005ms returns 0
T13A0 000:328.892 JLINK_WriteReg(R9, 0x20000288)
T13A0 000:328.895 - 0.005ms returns 0
T13A0 000:328.899 JLINK_WriteReg(R10, 0x00000000)
T13A0 000:328.903 - 0.005ms returns 0
T13A0 000:328.907 JLINK_WriteReg(R11, 0x00000000)
T13A0 000:328.910 - 0.005ms returns 0
T13A0 000:328.914 JLINK_WriteReg(R12, 0x00000000)
T13A0 000:328.918 - 0.005ms returns 0
T13A0 000:328.922 JLINK_WriteReg(R13 (SP), 0x20000800)
T13A0 000:328.926 - 0.006ms returns 0
T13A0 000:328.930 JLINK_WriteReg(R14, 0x20000001)
T13A0 000:328.934 - 0.005ms returns 0
T13A0 000:328.938 JLINK_WriteReg(R15 (PC), 0x20000064)
T13A0 000:328.941 - 0.005ms returns 0
T13A0 000:328.945 JLINK_WriteReg(XPSR, 0x01000000)
T13A0 000:328.949 - 0.005ms returns 0
T13A0 000:328.953 JLINK_WriteReg(MSP, 0x20000800)
T13A0 000:328.957 - 0.005ms returns 0
T13A0 000:328.961 JLINK_WriteReg(PSP, 0x20000800)
T13A0 000:328.965 - 0.005ms returns 0
T13A0 000:328.969 JLINK_WriteReg(CFBP, 0x00000000)
T13A0 000:328.972 - 0.005ms returns 0
T13A0 000:328.976 JLINK_SetBPEx(Addr = 0x20000000, Type = 0xFFFFFFF2)
T13A0 000:328.981 - 0.006ms returns 0x00000003
T13A0 000:328.985 JLINK_Go()
T13A0 000:328.997   CPU_ReadMem(4 bytes @ 0xE0001000)
T13A0 000:329.723   CPU_WriteMem(4 bytes @ 0xE0001000)
T13A0 000:335.964 - 7.014ms
T13A0 000:336.007 JLINK_IsHalted()
T13A0 000:342.069   CPU_ReadMem(2 bytes @ 0x20000000)
T13A0 000:342.843 - 6.843ms returns TRUE
T13A0 000:342.857 JLINK_ReadReg(R15 (PC))
T13A0 000:342.864 - 0.009ms returns 0x20000000
T13A0 000:342.869 JLINK_ClrBPEx(BPHandle = 0x00000003)
T13A0 000:342.873 - 0.005ms returns 0x00
T13A0 000:342.878 JLINK_ReadReg(R0)
T13A0 000:342.881 - 0.005ms returns 0x00000000
T13A0 000:343.639 JLINK_WriteMem(0x20000000, 0x290 Bytes, ...)
T13A0 000:343.645   Data:  00 BE 0A E0 0D 78 2D 06 68 40 08 24 40 00 00 D3 ...
T13A0 000:343.658   CPU_WriteMem(656 bytes @ 0x20000000)
T13A0 000:352.343 - 8.725ms returns 0x290
T13A0 000:352.416 JLINK_HasError()
T13A0 000:352.428 JLINK_WriteReg(R0, 0x08000000)
T13A0 000:352.438 - 0.011ms returns 0
T13A0 000:352.443 JLINK_WriteReg(R1, 0x00B71B00)
T13A0 000:352.447 - 0.006ms returns 0
T13A0 000:352.451 JLINK_WriteReg(R2, 0x00000002)
T13A0 000:352.455 - 0.005ms returns 0
T13A0 000:352.460 JLINK_WriteReg(R3, 0x00000000)
T13A0 000:352.464 - 0.005ms returns 0
T13A0 000:352.468 JLINK_WriteReg(R4, 0x00000000)
T13A0 000:352.472 - 0.005ms returns 0
T13A0 000:352.476 JLINK_WriteReg(R5, 0x00000000)
T13A0 000:352.480 - 0.005ms returns 0
T13A0 000:352.485 JLINK_WriteReg(R6, 0x00000000)
T13A0 000:352.488 - 0.005ms returns 0
T13A0 000:352.493 JLINK_WriteReg(R7, 0x00000000)
T13A0 000:352.497 - 0.006ms returns 0
T13A0 000:352.502 JLINK_WriteReg(R8, 0x00000000)
T13A0 000:352.518 - 0.017ms returns 0
T13A0 000:352.522 JLINK_WriteReg(R9, 0x20000288)
T13A0 000:352.526 - 0.005ms returns 0
T13A0 000:352.530 JLINK_WriteReg(R10, 0x00000000)
T13A0 000:352.535 - 0.007ms returns 0
T13A0 000:352.540 JLINK_WriteReg(R11, 0x00000000)
T13A0 000:352.543 - 0.005ms returns 0
T13A0 000:352.548 JLINK_WriteReg(R12, 0x00000000)
T13A0 000:352.552 - 0.005ms returns 0
T13A0 000:352.556 JLINK_WriteReg(R13 (SP), 0x20000800)
T13A0 000:352.561 - 0.006ms returns 0
T13A0 000:352.565 JLINK_WriteReg(R14, 0x20000001)
T13A0 000:352.569 - 0.005ms returns 0
T13A0 000:352.573 JLINK_WriteReg(R15 (PC), 0x20000022)
T13A0 000:352.578 - 0.005ms returns 0
T13A0 000:352.582 JLINK_WriteReg(XPSR, 0x01000000)
T13A0 000:352.586 - 0.005ms returns 0
T13A0 000:352.590 JLINK_WriteReg(MSP, 0x20000800)
T13A0 000:352.594 - 0.005ms returns 0
T13A0 000:352.598 JLINK_WriteReg(PSP, 0x20000800)
T13A0 000:352.602 - 0.005ms returns 0
T13A0 000:352.607 JLINK_WriteReg(CFBP, 0x00000000)
T13A0 000:352.611 - 0.005ms returns 0
T13A0 000:352.615 JLINK_SetBPEx(Addr = 0x20000000, Type = 0xFFFFFFF2)
T13A0 000:352.626   CPU_ReadMem(4 bytes @ 0x20000000)
T13A0 000:353.168   CPU_WriteMem(4 bytes @ 0x20000000)
T13A0 000:353.847   CPU_ReadMem(4 bytes @ 0x20000000)
T13A0 000:354.406   CPU_WriteMem(4 bytes @ 0x20000000)
T13A0 000:355.101   CPU_ReadMem(2 bytes @ 0x20000000)
T13A0 000:355.816 - 3.208ms returns 0x00000004
T13A0 000:355.834 JLINK_Go()
T13A0 000:355.842   CPU_WriteMem(2 bytes @ 0x20000000)
T13A0 000:356.566   CPU_ReadMem(4 bytes @ 0xE0001000)
T13A0 000:357.222   CPU_WriteMem(4 bytes @ 0xE0001000)
T13A0 000:363.664 - 7.848ms
T13A0 000:363.695 JLINK_IsHalted()
T13A0 000:369.675   CPU_ReadMem(2 bytes @ 0x20000000)
T13A0 000:370.515 - 6.841ms returns TRUE
T13A0 000:370.551 JLINK_ReadReg(R15 (PC))
T13A0 000:370.561 - 0.011ms returns 0x20000000
T13A0 000:370.565 JLINK_ClrBPEx(BPHandle = 0x00000004)
T13A0 000:370.569 - 0.005ms returns 0x00
T13A0 000:370.574 JLINK_ReadReg(R0)
T13A0 000:370.577 - 0.005ms returns 0x00000000
T13A0 000:370.615 JLINK_WriteMem(0x20000290, 0x80 Bytes, ...)
T13A0 000:370.619   Data:  88 08 00 20 DD 00 00 08 1D 1F 00 08 19 1F 00 08 ...
T13A0 000:370.634   CPU_WriteMem(128 bytes @ 0x20000290)
T13A0 000:372.948 - 2.353ms returns 0x80
T13A0 000:372.984 JLINK_HasError()
T13A0 000:372.991 JLINK_WriteReg(R0, 0x08000000)
T13A0 000:373.000 - 0.011ms returns 0
T13A0 000:373.005 JLINK_WriteReg(R1, 0x00000080)
T13A0 000:373.008 - 0.005ms returns 0
T13A0 000:373.012 JLINK_WriteReg(R2, 0x20000290)
T13A0 000:373.016 - 0.005ms returns 0
T13A0 000:373.020 JLINK_WriteReg(R3, 0x00000000)
T13A0 000:373.024 - 0.005ms returns 0
T13A0 000:373.028 JLINK_WriteReg(R4, 0x00000000)
T13A0 000:373.031 - 0.005ms returns 0
T13A0 000:373.035 JLINK_WriteReg(R5, 0x00000000)
T13A0 000:373.039 - 0.005ms returns 0
T13A0 000:373.043 JLINK_WriteReg(R6, 0x00000000)
T13A0 000:373.046 - 0.005ms returns 0
T13A0 000:373.050 JLINK_WriteReg(R7, 0x00000000)
T13A0 000:373.054 - 0.005ms returns 0
T13A0 000:373.057 JLINK_WriteReg(R8, 0x00000000)
T13A0 000:373.061 - 0.005ms returns 0
T13A0 000:373.065 JLINK_WriteReg(R9, 0x20000288)
T13A0 000:373.068 - 0.005ms returns 0
T13A0 000:373.072 JLINK_WriteReg(R10, 0x00000000)
T13A0 000:373.076 - 0.005ms returns 0
T13A0 000:373.080 JLINK_WriteReg(R11, 0x00000000)
T13A0 000:373.083 - 0.005ms returns 0
T13A0 000:373.087 JLINK_WriteReg(R12, 0x00000000)
T13A0 000:373.091 - 0.005ms returns 0
T13A0 000:373.097 JLINK_WriteReg(R13 (SP), 0x20000800)
T13A0 000:373.101 - 0.006ms returns 0
T13A0 000:373.214 JLINK_WriteReg(R14, 0x20000001)
T13A0 000:373.226 - 0.013ms returns 0
T13A0 000:373.231 JLINK_WriteReg(R15 (PC), 0x2000016A)
T13A0 000:373.235 - 0.005ms returns 0
T13A0 000:373.239 JLINK_WriteReg(XPSR, 0x01000000)
T13A0 000:373.243 - 0.005ms returns 0
T13A0 000:373.247 JLINK_WriteReg(MSP, 0x20000800)
T13A0 000:373.250 - 0.005ms returns 0
T13A0 000:373.254 JLINK_WriteReg(PSP, 0x20000800)
T13A0 000:373.258 - 0.005ms returns 0
T13A0 000:373.262 JLINK_WriteReg(CFBP, 0x00000000)
T13A0 000:373.265 - 0.005ms returns 0
T13A0 000:373.270 JLINK_SetBPEx(Addr = 0x20000000, Type = 0xFFFFFFF2)
T13A0 000:373.275 - 0.006ms returns 0x00000005
T13A0 000:373.279 JLINK_Go()
T13A0 000:373.290   CPU_ReadMem(4 bytes @ 0xE0001000)
T13A0 000:374.066   CPU_WriteMem(4 bytes @ 0xE0001000)
T13A0 000:380.204 - 6.946ms
T13A0 000:380.232 JLINK_IsHalted()
T13A0 000:381.257 - 1.046ms returns FALSE
T13A0 000:381.288 JLINK_HasError()
T13A0 000:384.389 JLINK_IsHalted()
T13A0 000:390.519   CPU_ReadMem(2 bytes @ 0x20000000)
T13A0 000:391.134 - 6.757ms returns TRUE
T13A0 000:391.154 JLINK_ReadReg(R15 (PC))
T13A0 000:391.163 - 0.011ms returns 0x20000000
T13A0 000:391.168 JLINK_ClrBPEx(BPHandle = 0x00000005)
T13A0 000:391.172 - 0.006ms returns 0x00
T13A0 000:391.177 JLINK_ReadReg(R0)
T13A0 000:391.181 - 0.005ms returns 0x00000000
T13A0 000:391.230 JLINK_WriteMem(0x20000290, 0x80 Bytes, ...)
T13A0 000:391.236   Data:  00 00 00 00 EF 00 00 08 00 00 00 00 71 20 00 08 ...
T13A0 000:391.265   CPU_WriteMem(128 bytes @ 0x20000290)
T13A0 000:393.300 - 2.087ms returns 0x80
T13A0 000:393.327 JLINK_HasError()
T13A0 000:393.333 JLINK_WriteReg(R0, 0x08000080)
T13A0 000:393.347 - 0.019ms returns 0
T13A0 000:393.359 JLINK_WriteReg(R1, 0x00000080)
T13A0 000:393.363 - 0.005ms returns 0
T13A0 000:393.367 JLINK_WriteReg(R2, 0x20000290)
T13A0 000:393.371 - 0.005ms returns 0
T13A0 000:393.375 JLINK_WriteReg(R3, 0x00000000)
T13A0 000:393.378 - 0.005ms returns 0
T13A0 000:393.382 JLINK_WriteReg(R4, 0x00000000)
T13A0 000:393.386 - 0.005ms returns 0
T13A0 000:393.390 JLINK_WriteReg(R5, 0x00000000)
T13A0 000:393.393 - 0.005ms returns 0
T13A0 000:393.397 JLINK_WriteReg(R6, 0x00000000)
T13A0 000:393.401 - 0.005ms returns 0
T13A0 000:393.405 JLINK_WriteReg(R7, 0x00000000)
T13A0 000:393.408 - 0.005ms returns 0
T13A0 000:393.412 JLINK_WriteReg(R8, 0x00000000)
T13A0 000:393.416 - 0.005ms returns 0
T13A0 000:393.420 JLINK_WriteReg(R9, 0x20000288)
T13A0 000:393.424 - 0.005ms returns 0
T13A0 000:393.428 JLINK_WriteReg(R10, 0x00000000)
T13A0 000:393.431 - 0.005ms returns 0
T13A0 000:393.435 JLINK_WriteReg(R11, 0x00000000)
T13A0 000:393.439 - 0.005ms returns 0
T13A0 000:393.443 JLINK_WriteReg(R12, 0x00000000)
T13A0 000:393.446 - 0.005ms returns 0
T13A0 000:393.450 JLINK_WriteReg(R13 (SP), 0x20000800)
T13A0 000:393.454 - 0.005ms returns 0
T13A0 000:393.458 JLINK_WriteReg(R14, 0x20000001)
T13A0 000:393.462 - 0.005ms returns 0
T13A0 000:393.466 JLINK_WriteReg(R15 (PC), 0x2000016A)
T13A0 000:393.470 - 0.005ms returns 0
T13A0 000:393.474 JLINK_WriteReg(XPSR, 0x01000000)
T13A0 000:393.477 - 0.005ms returns 0
T13A0 000:393.481 JLINK_WriteReg(MSP, 0x20000800)
T13A0 000:393.485 - 0.005ms returns 0
T13A0 000:393.489 JLINK_WriteReg(PSP, 0x20000800)
T13A0 000:393.492 - 0.005ms returns 0
T13A0 000:393.496 JLINK_WriteReg(CFBP, 0x00000000)
T13A0 000:393.500 - 0.005ms returns 0
T13A0 000:393.504 JLINK_SetBPEx(Addr = 0x20000000, Type = 0xFFFFFFF2)
T13A0 000:393.509 - 0.006ms returns 0x00000006
T13A0 000:393.513 JLINK_Go()
T13A0 000:393.524   CPU_ReadMem(4 bytes @ 0xE0001000)
T13A0 000:394.107   CPU_WriteMem(4 bytes @ 0xE0001000)
T13A0 000:399.940 - 6.447ms
T13A0 000:399.971 JLINK_IsHalted()
T13A0 000:401.133 - 1.201ms returns FALSE
T13A0 000:401.202 JLINK_HasError()
T13A0 000:402.804 JLINK_IsHalted()
T13A0 000:408.734   CPU_ReadMem(2 bytes @ 0x20000000)
T13A0 000:409.377 - 6.581ms returns TRUE
T13A0 000:409.392 JLINK_ReadReg(R15 (PC))
T13A0 000:409.400 - 0.009ms returns 0x20000000
T13A0 000:409.404 JLINK_ClrBPEx(BPHandle = 0x00000006)
T13A0 000:409.408 - 0.005ms returns 0x00
T13A0 000:409.412 JLINK_ReadReg(R0)
T13A0 000:409.416 - 0.005ms returns 0x00000000
T13A0 000:409.459 JLINK_WriteMem(0x20000290, 0x80 Bytes, ...)
T13A0 000:409.463   Data:  09 E0 08 C9 12 1F 08 C0 04 2A FA D2 03 E0 0B 78 ...
T13A0 000:409.474   CPU_WriteMem(128 bytes @ 0x20000290)
T13A0 000:411.513 - 2.063ms returns 0x80
T13A0 000:411.535 JLINK_HasError()
T13A0 000:411.542 JLINK_WriteReg(R0, 0x08000100)
T13A0 000:411.551 - 0.011ms returns 0
T13A0 000:411.557 JLINK_WriteReg(R1, 0x00000080)
T13A0 000:411.562 - 0.007ms returns 0
T13A0 000:411.575 JLINK_WriteReg(R2, 0x20000290)
T13A0 000:411.580 - 0.007ms returns 0
T13A0 000:411.586 JLINK_WriteReg(R3, 0x00000000)
T13A0 000:411.590 - 0.007ms returns 0
T13A0 000:411.596 JLINK_WriteReg(R4, 0x00000000)
T13A0 000:411.602 - 0.007ms returns 0
T13A0 000:411.608 JLINK_WriteReg(R5, 0x00000000)
T13A0 000:411.614 - 0.008ms returns 0
T13A0 000:411.620 JLINK_WriteReg(R6, 0x00000000)
T13A0 000:411.625 - 0.006ms returns 0
T13A0 000:411.629 JLINK_WriteReg(R7, 0x00000000)
T13A0 000:411.633 - 0.005ms returns 0
T13A0 000:411.638 JLINK_WriteReg(R8, 0x00000000)
T13A0 000:411.642 - 0.005ms returns 0
T13A0 000:411.647 JLINK_WriteReg(R9, 0x20000288)
T13A0 000:411.651 - 0.007ms returns 0
T13A0 000:411.656 JLINK_WriteReg(R10, 0x00000000)
T13A0 000:411.660 - 0.005ms returns 0
T13A0 000:411.664 JLINK_WriteReg(R11, 0x00000000)
T13A0 000:411.669 - 0.007ms returns 0
T13A0 000:411.674 JLINK_WriteReg(R12, 0x00000000)
T13A0 000:411.678 - 0.005ms returns 0
T13A0 000:411.682 JLINK_WriteReg(R13 (SP), 0x20000800)
T13A0 000:411.689 - 0.008ms returns 0
T13A0 000:411.728 JLINK_WriteReg(R14, 0x20000001)
T13A0 000:411.746 - 0.019ms returns 0
T13A0 000:411.751 JLINK_WriteReg(R15 (PC), 0x2000016A)
T13A0 000:411.756 - 0.007ms returns 0
T13A0 000:411.761 JLINK_WriteReg(XPSR, 0x01000000)
T13A0 000:411.766 - 0.019ms returns 0
T13A0 000:411.783 JLINK_WriteReg(MSP, 0x20000800)
T13A0 000:411.787 - 0.005ms returns 0
T13A0 000:411.792 JLINK_WriteReg(PSP, 0x20000800)
T13A0 000:411.796 - 0.021ms returns 0
T13A0 000:411.816 JLINK_WriteReg(CFBP, 0x00000000)
T13A0 000:411.820 - 0.006ms returns 0
T13A0 000:411.827 JLINK_SetBPEx(Addr = 0x20000000, Type = 0xFFFFFFF2)
T13A0 000:411.836 - 0.010ms returns 0x00000007
T13A0 000:411.841 JLINK_Go()
T13A0 000:411.855   CPU_ReadMem(4 bytes @ 0xE0001000)
T13A0 000:412.538   CPU_WriteMem(4 bytes @ 0xE0001000)
T13A0 000:418.328 - 6.506ms
T13A0 000:418.356 JLINK_IsHalted()
T13A0 000:419.403 - 1.057ms returns FALSE
T13A0 000:419.420 JLINK_HasError()
T13A0 000:421.156 JLINK_IsHalted()
T13A0 000:426.971   CPU_ReadMem(2 bytes @ 0x20000000)
T13A0 000:427.495 - 6.350ms returns TRUE
T13A0 000:427.520 JLINK_ReadReg(R15 (PC))
T13A0 000:427.533 - 0.014ms returns 0x20000000
T13A0 000:427.540 JLINK_ClrBPEx(BPHandle = 0x00000007)
T13A0 000:427.546 - 0.008ms returns 0x00
T13A0 000:427.553 JLINK_ReadReg(R0)
T13A0 000:427.559 - 0.008ms returns 0x00000000
T13A0 000:427.634 JLINK_WriteMem(0x20000290, 0x80 Bytes, ...)
T13A0 000:427.639   Data:  01 D0 00 20 C0 43 C0 46 C0 46 0D E0 25 46 D5 40 ...
T13A0 000:427.651   CPU_WriteMem(128 bytes @ 0x20000290)
T13A0 000:429.794 - 2.176ms returns 0x80
T13A0 000:429.818 JLINK_HasError()
T13A0 000:429.825 JLINK_WriteReg(R0, 0x08000180)
T13A0 000:429.834 - 0.011ms returns 0
T13A0 000:429.838 JLINK_WriteReg(R1, 0x00000080)
T13A0 000:429.842 - 0.005ms returns 0
T13A0 000:429.846 JLINK_WriteReg(R2, 0x20000290)
T13A0 000:429.850 - 0.005ms returns 0
T13A0 000:429.854 JLINK_WriteReg(R3, 0x00000000)
T13A0 000:429.857 - 0.005ms returns 0
T13A0 000:429.861 JLINK_WriteReg(R4, 0x00000000)
T13A0 000:429.865 - 0.005ms returns 0
T13A0 000:429.869 JLINK_WriteReg(R5, 0x00000000)
T13A0 000:429.872 - 0.005ms returns 0
T13A0 000:429.876 JLINK_WriteReg(R6, 0x00000000)
T13A0 000:429.880 - 0.005ms returns 0
T13A0 000:429.884 JLINK_WriteReg(R7, 0x00000000)
T13A0 000:429.887 - 0.005ms returns 0
T13A0 000:429.891 JLINK_WriteReg(R8, 0x00000000)
T13A0 000:429.895 - 0.005ms returns 0
T13A0 000:429.899 JLINK_WriteReg(R9, 0x20000288)
T13A0 000:429.902 - 0.005ms returns 0
T13A0 000:429.906 JLINK_WriteReg(R10, 0x00000000)
T13A0 000:429.910 - 0.005ms returns 0
T13A0 000:429.914 JLINK_WriteReg(R11, 0x00000000)
T13A0 000:429.917 - 0.005ms returns 0
T13A0 000:429.921 JLINK_WriteReg(R12, 0x00000000)
T13A0 000:429.925 - 0.005ms returns 0
T13A0 000:429.929 JLINK_WriteReg(R13 (SP), 0x20000800)
T13A0 000:429.933 - 0.006ms returns 0
T13A0 000:429.937 JLINK_WriteReg(R14, 0x20000001)
T13A0 000:429.941 - 0.005ms returns 0
T13A0 000:429.945 JLINK_WriteReg(R15 (PC), 0x2000016A)
T13A0 000:429.948 - 0.005ms returns 0
T13A0 000:429.952 JLINK_WriteReg(XPSR, 0x01000000)
T13A0 000:429.956 - 0.005ms returns 0
T13A0 000:429.960 JLINK_WriteReg(MSP, 0x20000800)
T13A0 000:429.963 - 0.005ms returns 0
T13A0 000:429.967 JLINK_WriteReg(PSP, 0x20000800)
T13A0 000:429.971 - 0.005ms returns 0
T13A0 000:429.975 JLINK_WriteReg(CFBP, 0x00000000)
T13A0 000:429.978 - 0.005ms returns 0
T13A0 000:429.983 JLINK_SetBPEx(Addr = 0x20000000, Type = 0xFFFFFFF2)
T13A0 000:429.987 - 0.006ms returns 0x00000008
T13A0 000:429.992 JLINK_Go()
T13A0 000:430.002   CPU_ReadMem(4 bytes @ 0xE0001000)
T13A0 000:430.622   CPU_WriteMem(4 bytes @ 0xE0001000)
T13A0 000:436.303 - 6.335ms
T13A0 000:436.337 JLINK_IsHalted()
T13A0 000:437.444 - 1.139ms returns FALSE
T13A0 000:437.484 JLINK_HasError()
T13A0 000:439.087 JLINK_IsHalted()
T13A0 000:444.926   CPU_ReadMem(2 bytes @ 0x20000000)
T13A0 000:445.438 - 6.360ms returns TRUE
T13A0 000:445.455 JLINK_ReadReg(R15 (PC))
T13A0 000:445.464 - 0.010ms returns 0x20000000
T13A0 000:445.469 JLINK_ClrBPEx(BPHandle = 0x00000008)
T13A0 000:445.533 - 0.065ms returns 0x00
T13A0 000:445.538 JLINK_ReadReg(R0)
T13A0 000:445.542 - 0.006ms returns 0x00000000
T13A0 000:445.586 JLINK_WriteMem(0x20000290, 0x80 Bytes, ...)
T13A0 000:445.591   Data:  15 46 0E 46 10 20 05 F0 5B F9 04 00 09 D0 67 60 ...
T13A0 000:445.602   CPU_WriteMem(128 bytes @ 0x20000290)
T13A0 000:447.739 - 2.160ms returns 0x80
T13A0 000:447.752 JLINK_HasError()
T13A0 000:447.759 JLINK_WriteReg(R0, 0x08000200)
T13A0 000:447.765 - 0.008ms returns 0
T13A0 000:447.770 JLINK_WriteReg(R1, 0x00000080)
T13A0 000:447.774 - 0.005ms returns 0
T13A0 000:447.778 JLINK_WriteReg(R2, 0x20000290)
T13A0 000:447.782 - 0.005ms returns 0
T13A0 000:447.787 JLINK_WriteReg(R3, 0x00000000)
T13A0 000:447.791 - 0.005ms returns 0
T13A0 000:447.795 JLINK_WriteReg(R4, 0x00000000)
T13A0 000:447.799 - 0.005ms returns 0
T13A0 000:447.803 JLINK_WriteReg(R5, 0x00000000)
T13A0 000:447.807 - 0.005ms returns 0
T13A0 000:447.812 JLINK_WriteReg(R6, 0x00000000)
T13A0 000:447.816 - 0.005ms returns 0
T13A0 000:447.820 JLINK_WriteReg(R7, 0x00000000)
T13A0 000:447.824 - 0.005ms returns 0
T13A0 000:447.828 JLINK_WriteReg(R8, 0x00000000)
T13A0 000:447.832 - 0.005ms returns 0
T13A0 000:447.837 JLINK_WriteReg(R9, 0x20000288)
T13A0 000:447.840 - 0.005ms returns 0
T13A0 000:447.845 JLINK_WriteReg(R10, 0x00000000)
T13A0 000:447.851 - 0.008ms returns 0
T13A0 000:447.856 JLINK_WriteReg(R11, 0x00000000)
T13A0 000:447.859 - 0.005ms returns 0
T13A0 000:447.864 JLINK_WriteReg(R12, 0x00000000)
T13A0 000:447.868 - 0.005ms returns 0
T13A0 000:447.872 JLINK_WriteReg(R13 (SP), 0x20000800)
T13A0 000:447.876 - 0.006ms returns 0
T13A0 000:447.881 JLINK_WriteReg(R14, 0x20000001)
T13A0 000:447.885 - 0.005ms returns 0
T13A0 000:447.889 JLINK_WriteReg(R15 (PC), 0x2000016A)
T13A0 000:447.893 - 0.005ms returns 0
T13A0 000:447.898 JLINK_WriteReg(XPSR, 0x01000000)
T13A0 000:447.902 - 0.005ms returns 0
T13A0 000:447.906 JLINK_WriteReg(MSP, 0x20000800)
T13A0 000:447.910 - 0.005ms returns 0
T13A0 000:447.914 JLINK_WriteReg(PSP, 0x20000800)
T13A0 000:447.918 - 0.005ms returns 0
T13A0 000:447.923 JLINK_WriteReg(CFBP, 0x00000000)
T13A0 000:447.927 - 0.005ms returns 0
T13A0 000:447.931 JLINK_SetBPEx(Addr = 0x20000000, Type = 0xFFFFFFF2)
T13A0 000:447.936 - 0.006ms returns 0x00000009
T13A0 000:447.941 JLINK_Go()
T13A0 000:447.949   CPU_ReadMem(4 bytes @ 0xE0001000)
T13A0 000:448.423   CPU_WriteMem(4 bytes @ 0xE0001000)
T13A0 000:454.187 - 6.267ms
T13A0 000:454.223 JLINK_IsHalted()
T13A0 000:455.430 - 1.215ms returns FALSE
T13A0 000:455.449 JLINK_HasError()
T13A0 000:456.952 JLINK_IsHalted()
T13A0 000:462.791   CPU_ReadMem(2 bytes @ 0x20000000)
T13A0 000:463.295 - 6.352ms returns TRUE
T13A0 000:463.312 JLINK_ReadReg(R15 (PC))
T13A0 000:463.321 - 0.010ms returns 0x20000000
T13A0 000:463.326 JLINK_ClrBPEx(BPHandle = 0x00000009)
T13A0 000:463.330 - 0.006ms returns 0x00
T13A0 000:463.335 JLINK_ReadReg(R0)
T13A0 000:463.339 - 0.006ms returns 0x00000000
T13A0 000:463.384 JLINK_WriteMem(0x20000290, 0x80 Bytes, ...)
T13A0 000:463.389   Data:  00 98 00 68 B8 42 02 D0 00 98 E8 E7 25 46 2C 68 ...
T13A0 000:463.405   CPU_WriteMem(128 bytes @ 0x20000290)
T13A0 000:465.516 - 2.143ms returns 0x80
T13A0 000:465.534 JLINK_HasError()
T13A0 000:465.540 JLINK_WriteReg(R0, 0x08000280)
T13A0 000:465.546 - 0.008ms returns 0
T13A0 000:465.551 JLINK_WriteReg(R1, 0x00000080)
T13A0 000:465.555 - 0.005ms returns 0
T13A0 000:465.560 JLINK_WriteReg(R2, 0x20000290)
T13A0 000:465.564 - 0.005ms returns 0
T13A0 000:465.568 JLINK_WriteReg(R3, 0x00000000)
T13A0 000:465.572 - 0.005ms returns 0
T13A0 000:465.576 JLINK_WriteReg(R4, 0x00000000)
T13A0 000:465.580 - 0.005ms returns 0
T13A0 000:465.584 JLINK_WriteReg(R5, 0x00000000)
T13A0 000:465.588 - 0.005ms returns 0
T13A0 000:465.593 JLINK_WriteReg(R6, 0x00000000)
T13A0 000:465.597 - 0.005ms returns 0
T13A0 000:465.601 JLINK_WriteReg(R7, 0x00000000)
T13A0 000:465.605 - 0.005ms returns 0
T13A0 000:465.609 JLINK_WriteReg(R8, 0x00000000)
T13A0 000:465.617 - 0.012ms returns 0
T13A0 000:465.625 JLINK_WriteReg(R9, 0x20000288)
T13A0 000:465.629 - 0.005ms returns 0
T13A0 000:465.633 JLINK_WriteReg(R10, 0x00000000)
T13A0 000:465.637 - 0.005ms returns 0
T13A0 000:465.641 JLINK_WriteReg(R11, 0x00000000)
T13A0 000:465.645 - 0.005ms returns 0
T13A0 000:465.650 JLINK_WriteReg(R12, 0x00000000)
T13A0 000:465.654 - 0.005ms returns 0
T13A0 000:465.658 JLINK_WriteReg(R13 (SP), 0x20000800)
T13A0 000:465.662 - 0.006ms returns 0
T13A0 000:465.667 JLINK_WriteReg(R14, 0x20000001)
T13A0 000:465.671 - 0.005ms returns 0
T13A0 000:465.675 JLINK_WriteReg(R15 (PC), 0x2000016A)
T13A0 000:465.679 - 0.006ms returns 0
T13A0 000:465.684 JLINK_WriteReg(XPSR, 0x01000000)
T13A0 000:465.688 - 0.005ms returns 0
T13A0 000:465.692 JLINK_WriteReg(MSP, 0x20000800)
T13A0 000:465.696 - 0.005ms returns 0
T13A0 000:465.700 JLINK_WriteReg(PSP, 0x20000800)
T13A0 000:465.704 - 0.005ms returns 0
T13A0 000:465.709 JLINK_WriteReg(CFBP, 0x00000000)
T13A0 000:465.712 - 0.005ms returns 0
T13A0 000:465.717 JLINK_SetBPEx(Addr = 0x20000000, Type = 0xFFFFFFF2)
T13A0 000:465.722 - 0.006ms returns 0x0000000A
T13A0 000:465.726 JLINK_Go()
T13A0 000:465.735   CPU_ReadMem(4 bytes @ 0xE0001000)
T13A0 000:466.310   CPU_WriteMem(4 bytes @ 0xE0001000)
T13A0 000:472.277 - 6.570ms
T13A0 000:472.304 JLINK_IsHalted()
T13A0 000:473.371 - 1.073ms returns FALSE
T13A0 000:473.384 JLINK_HasError()
T13A0 000:475.354 JLINK_IsHalted()
T13A0 000:481.286   CPU_ReadMem(2 bytes @ 0x20000000)
T13A0 000:481.920 - 6.573ms returns TRUE
T13A0 000:481.939 JLINK_ReadReg(R15 (PC))
T13A0 000:481.947 - 0.010ms returns 0x20000000
T13A0 000:481.952 JLINK_ClrBPEx(BPHandle = 0x0000000A)
T13A0 000:481.956 - 0.006ms returns 0x00
T13A0 000:481.961 JLINK_ReadReg(R0)
T13A0 000:481.965 - 0.005ms returns 0x00000000
T13A0 000:482.010 JLINK_WriteMem(0x20000290, 0x80 Bytes, ...)
T13A0 000:482.014   Data:  80 BD C0 46 00 01 FF 1F 82 B0 01 90 01 99 07 48 ...
T13A0 000:482.025   CPU_WriteMem(128 bytes @ 0x20000290)
T13A0 000:484.148 - 2.161ms returns 0x80
T13A0 000:484.182 JLINK_HasError()
T13A0 000:484.189 JLINK_WriteReg(R0, 0x08000300)
T13A0 000:484.200 - 0.013ms returns 0
T13A0 000:484.205 JLINK_WriteReg(R1, 0x00000080)
T13A0 000:484.209 - 0.005ms returns 0
T13A0 000:484.213 JLINK_WriteReg(R2, 0x20000290)
T13A0 000:484.217 - 0.005ms returns 0
T13A0 000:484.222 JLINK_WriteReg(R3, 0x00000000)
T13A0 000:484.226 - 0.005ms returns 0
T13A0 000:484.230 JLINK_WriteReg(R4, 0x00000000)
T13A0 000:484.234 - 0.005ms returns 0
T13A0 000:484.238 JLINK_WriteReg(R5, 0x00000000)
T13A0 000:484.242 - 0.005ms returns 0
T13A0 000:484.247 JLINK_WriteReg(R6, 0x00000000)
T13A0 000:484.251 - 0.005ms returns 0
T13A0 000:484.255 JLINK_WriteReg(R7, 0x00000000)
T13A0 000:484.259 - 0.005ms returns 0
T13A0 000:484.263 JLINK_WriteReg(R8, 0x00000000)
T13A0 000:484.267 - 0.005ms returns 0
T13A0 000:484.272 JLINK_WriteReg(R9, 0x20000288)
T13A0 000:484.275 - 0.005ms returns 0
T13A0 000:484.280 JLINK_WriteReg(R10, 0x00000000)
T13A0 000:484.284 - 0.005ms returns 0
T13A0 000:484.288 JLINK_WriteReg(R11, 0x00000000)
T13A0 000:484.292 - 0.005ms returns 0
T13A0 000:484.296 JLINK_WriteReg(R12, 0x00000000)
T13A0 000:484.300 - 0.005ms returns 0
T13A0 000:484.305 JLINK_WriteReg(R13 (SP), 0x20000800)
T13A0 000:484.310 - 0.006ms returns 0
T13A0 000:484.314 JLINK_WriteReg(R14, 0x20000001)
T13A0 000:484.318 - 0.005ms returns 0
T13A0 000:484.322 JLINK_WriteReg(R15 (PC), 0x2000016A)
T13A0 000:484.326 - 0.005ms returns 0
T13A0 000:484.331 JLINK_WriteReg(XPSR, 0x01000000)
T13A0 000:484.335 - 0.005ms returns 0
T13A0 000:484.339 JLINK_WriteReg(MSP, 0x20000800)
T13A0 000:484.343 - 0.005ms returns 0
T13A0 000:484.347 JLINK_WriteReg(PSP, 0x20000800)
T13A0 000:484.351 - 0.005ms returns 0
T13A0 000:484.356 JLINK_WriteReg(CFBP, 0x00000000)
T13A0 000:484.359 - 0.005ms returns 0
T13A0 000:484.364 JLINK_SetBPEx(Addr = 0x20000000, Type = 0xFFFFFFF2)
T13A0 000:484.370 - 0.007ms returns 0x0000000B
T13A0 000:484.374 JLINK_Go()
T13A0 000:484.386   CPU_ReadMem(4 bytes @ 0xE0001000)
T13A0 000:485.039   CPU_WriteMem(4 bytes @ 0xE0001000)
T13A0 000:490.748 - 6.398ms
T13A0 000:490.780 JLINK_IsHalted()
T13A0 000:491.979 - 1.223ms returns FALSE
T13A0 000:492.013 JLINK_HasError()
T13A0 000:494.191 JLINK_IsHalted()
T13A0 000:499.998   CPU_ReadMem(2 bytes @ 0x20000000)
T13A0 000:500.723 - 6.541ms returns TRUE
T13A0 000:500.739 JLINK_ReadReg(R15 (PC))
T13A0 000:500.747 - 0.010ms returns 0x20000000
T13A0 000:500.752 JLINK_ClrBPEx(BPHandle = 0x0000000B)
T13A0 000:500.756 - 0.005ms returns 0x00
T13A0 000:500.760 JLINK_ReadReg(R0)
T13A0 000:500.764 - 0.005ms returns 0x00000000
T13A0 000:500.808 JLINK_WriteMem(0x20000290, 0x80 Bytes, ...)
T13A0 000:500.812   Data:  05 98 02 90 04 98 01 90 1F 49 08 68 01 22 10 43 ...
T13A0 000:500.823   CPU_WriteMem(128 bytes @ 0x20000290)
T13A0 000:502.921 - 2.177ms returns 0x80
T13A0 000:503.009 JLINK_HasError()
T13A0 000:503.022 JLINK_WriteReg(R0, 0x08000380)
T13A0 000:503.065 - 0.045ms returns 0
T13A0 000:503.071 JLINK_WriteReg(R1, 0x00000080)
T13A0 000:503.075 - 0.006ms returns 0
T13A0 000:503.079 JLINK_WriteReg(R2, 0x20000290)
T13A0 000:503.084 - 0.005ms returns 0
T13A0 000:503.088 JLINK_WriteReg(R3, 0x00000000)
T13A0 000:503.092 - 0.005ms returns 0
T13A0 000:503.096 JLINK_WriteReg(R4, 0x00000000)
T13A0 000:503.100 - 0.005ms returns 0
T13A0 000:503.105 JLINK_WriteReg(R5, 0x00000000)
T13A0 000:503.108 - 0.005ms returns 0
T13A0 000:503.113 JLINK_WriteReg(R6, 0x00000000)
T13A0 000:503.117 - 0.005ms returns 0
T13A0 000:503.121 JLINK_WriteReg(R7, 0x00000000)
T13A0 000:503.125 - 0.005ms returns 0
T13A0 000:503.129 JLINK_WriteReg(R8, 0x00000000)
T13A0 000:503.136 - 0.008ms returns 0
T13A0 000:503.140 JLINK_WriteReg(R9, 0x20000288)
T13A0 000:503.144 - 0.005ms returns 0
T13A0 000:503.148 JLINK_WriteReg(R10, 0x00000000)
T13A0 000:503.152 - 0.005ms returns 0
T13A0 000:503.157 JLINK_WriteReg(R11, 0x00000000)
T13A0 000:503.161 - 0.005ms returns 0
T13A0 000:503.165 JLINK_WriteReg(R12, 0x00000000)
T13A0 000:503.169 - 0.005ms returns 0
T13A0 000:503.173 JLINK_WriteReg(R13 (SP), 0x20000800)
T13A0 000:503.189 - 0.017ms returns 0
T13A0 000:503.193 JLINK_WriteReg(R14, 0x20000001)
T13A0 000:503.198 - 0.006ms returns 0
T13A0 000:503.202 JLINK_WriteReg(R15 (PC), 0x2000016A)
T13A0 000:503.207 - 0.006ms returns 0
T13A0 000:503.211 JLINK_WriteReg(XPSR, 0x01000000)
T13A0 000:503.215 - 0.005ms returns 0
T13A0 000:503.220 JLINK_WriteReg(MSP, 0x20000800)
T13A0 000:503.224 - 0.005ms returns 0
T13A0 000:503.228 JLINK_WriteReg(PSP, 0x20000800)
T13A0 000:503.232 - 0.005ms returns 0
T13A0 000:503.236 JLINK_WriteReg(CFBP, 0x00000000)
T13A0 000:503.240 - 0.006ms returns 0
T13A0 000:503.246 JLINK_SetBPEx(Addr = 0x20000000, Type = 0xFFFFFFF2)
T13A0 000:503.254 - 0.010ms returns 0x0000000C
T13A0 000:503.260 JLINK_Go()
T13A0 000:503.286   CPU_ReadMem(4 bytes @ 0xE0001000)
T13A0 000:503.851   CPU_WriteMem(4 bytes @ 0xE0001000)
T13A0 000:509.680 - 6.441ms
T13A0 000:509.714 JLINK_IsHalted()
T13A0 000:510.858 - 1.151ms returns FALSE
T13A0 000:510.875 JLINK_HasError()
T13A0 000:512.610 JLINK_IsHalted()
T13A0 000:518.609   CPU_ReadMem(2 bytes @ 0x20000000)
T13A0 000:519.308 - 6.709ms returns TRUE
T13A0 000:519.327 JLINK_ReadReg(R15 (PC))
T13A0 000:519.337 - 0.012ms returns 0x20000000
T13A0 000:519.343 JLINK_ClrBPEx(BPHandle = 0x0000000C)
T13A0 000:519.349 - 0.007ms returns 0x00
T13A0 000:519.354 JLINK_ReadReg(R0)
T13A0 000:519.359 - 0.007ms returns 0x00000000
T13A0 000:519.410 JLINK_WriteMem(0x20000290, 0x80 Bytes, ...)
T13A0 000:519.416   Data:  08 60 01 B0 70 47 C0 46 14 20 02 40 80 B5 84 B0 ...
T13A0 000:519.430   CPU_WriteMem(128 bytes @ 0x20000290)
T13A0 000:521.656 - 2.258ms returns 0x80
T13A0 000:521.678 JLINK_HasError()
T13A0 000:521.686 JLINK_WriteReg(R0, 0x08000400)
T13A0 000:521.695 - 0.012ms returns 0
T13A0 000:521.701 JLINK_WriteReg(R1, 0x00000080)
T13A0 000:521.706 - 0.007ms returns 0
T13A0 000:521.712 JLINK_WriteReg(R2, 0x20000290)
T13A0 000:521.716 - 0.007ms returns 0
T13A0 000:521.722 JLINK_WriteReg(R3, 0x00000000)
T13A0 000:521.734 - 0.014ms returns 0
T13A0 000:521.739 JLINK_WriteReg(R4, 0x00000000)
T13A0 000:521.744 - 0.006ms returns 0
T13A0 000:521.749 JLINK_WriteReg(R5, 0x00000000)
T13A0 000:521.754 - 0.007ms returns 0
T13A0 000:521.759 JLINK_WriteReg(R6, 0x00000000)
T13A0 000:521.764 - 0.007ms returns 0
T13A0 000:521.769 JLINK_WriteReg(R7, 0x00000000)
T13A0 000:521.774 - 0.006ms returns 0
T13A0 000:521.779 JLINK_WriteReg(R8, 0x00000000)
T13A0 000:521.784 - 0.007ms returns 0
T13A0 000:521.789 JLINK_WriteReg(R9, 0x20000288)
T13A0 000:521.794 - 0.006ms returns 0
T13A0 000:521.799 JLINK_WriteReg(R10, 0x00000000)
T13A0 000:521.804 - 0.007ms returns 0
T13A0 000:521.809 JLINK_WriteReg(R11, 0x00000000)
T13A0 000:521.814 - 0.007ms returns 0
T13A0 000:521.819 JLINK_WriteReg(R12, 0x00000000)
T13A0 000:521.824 - 0.006ms returns 0
T13A0 000:521.829 JLINK_WriteReg(R13 (SP), 0x20000800)
T13A0 000:521.835 - 0.007ms returns 0
T13A0 000:521.840 JLINK_WriteReg(R14, 0x20000001)
T13A0 000:521.845 - 0.007ms returns 0
T13A0 000:521.850 JLINK_WriteReg(R15 (PC), 0x2000016A)
T13A0 000:521.855 - 0.007ms returns 0
T13A0 000:521.860 JLINK_WriteReg(XPSR, 0x01000000)
T13A0 000:521.865 - 0.007ms returns 0
T13A0 000:521.870 JLINK_WriteReg(MSP, 0x20000800)
T13A0 000:521.875 - 0.006ms returns 0
T13A0 000:521.880 JLINK_WriteReg(PSP, 0x20000800)
T13A0 000:521.885 - 0.006ms returns 0
T13A0 000:521.890 JLINK_WriteReg(CFBP, 0x00000000)
T13A0 000:521.895 - 0.007ms returns 0
T13A0 000:521.900 JLINK_SetBPEx(Addr = 0x20000000, Type = 0xFFFFFFF2)
T13A0 000:521.906 - 0.008ms returns 0x0000000D
T13A0 000:521.912 JLINK_Go()
T13A0 000:521.924   CPU_ReadMem(4 bytes @ 0xE0001000)
T13A0 000:522.707   CPU_WriteMem(4 bytes @ 0xE0001000)
T13A0 000:528.801 - 6.912ms
T13A0 000:528.835 JLINK_IsHalted()
T13A0 000:529.903 - 1.079ms returns FALSE
T13A0 000:529.923 JLINK_HasError()
T13A0 000:531.027 JLINK_IsHalted()
T13A0 000:537.308   CPU_ReadMem(2 bytes @ 0x20000000)
T13A0 000:538.088 - 7.077ms returns TRUE
T13A0 000:538.125 JLINK_ReadReg(R15 (PC))
T13A0 000:538.141 - 0.020ms returns 0x20000000
T13A0 000:538.152 JLINK_ClrBPEx(BPHandle = 0x0000000D)
T13A0 000:538.161 - 0.012ms returns 0x00
T13A0 000:538.170 JLINK_ReadReg(R0)
T13A0 000:538.179 - 0.012ms returns 0x00000000
T13A0 000:538.372 JLINK_WriteMem(0x20000290, 0x80 Bytes, ...)
T13A0 000:538.393   Data:  FF E7 07 A9 02 20 08 70 5F E1 B2 49 01 20 08 70 ...
T13A0 000:538.425   CPU_WriteMem(128 bytes @ 0x20000290)
T13A0 000:540.696 - 2.341ms returns 0x80
T13A0 000:540.725 JLINK_HasError()
T13A0 000:540.738 JLINK_WriteReg(R0, 0x08000480)
T13A0 000:540.753 - 0.019ms returns 0
T13A0 000:540.763 JLINK_WriteReg(R1, 0x00000080)
T13A0 000:540.772 - 0.013ms returns 0
T13A0 000:540.782 JLINK_WriteReg(R2, 0x20000290)
T13A0 000:540.791 - 0.013ms returns 0
T13A0 000:540.801 JLINK_WriteReg(R3, 0x00000000)
T13A0 000:540.809 - 0.012ms returns 0
T13A0 000:540.819 JLINK_WriteReg(R4, 0x00000000)
T13A0 000:540.828 - 0.012ms returns 0
T13A0 000:540.838 JLINK_WriteReg(R5, 0x00000000)
T13A0 000:540.846 - 0.012ms returns 0
T13A0 000:540.856 JLINK_WriteReg(R6, 0x00000000)
T13A0 000:540.864 - 0.012ms returns 0
T13A0 000:540.874 JLINK_WriteReg(R7, 0x00000000)
T13A0 000:540.883 - 0.012ms returns 0
T13A0 000:540.893 JLINK_WriteReg(R8, 0x00000000)
T13A0 000:540.902 - 0.013ms returns 0
T13A0 000:540.911 JLINK_WriteReg(R9, 0x20000288)
T13A0 000:540.920 - 0.012ms returns 0
T13A0 000:540.930 JLINK_WriteReg(R10, 0x00000000)
T13A0 000:540.938 - 0.012ms returns 0
T13A0 000:540.948 JLINK_WriteReg(R11, 0x00000000)
T13A0 000:540.957 - 0.012ms returns 0
T13A0 000:540.967 JLINK_WriteReg(R12, 0x00000000)
T13A0 000:540.975 - 0.012ms returns 0
T13A0 000:540.985 JLINK_WriteReg(R13 (SP), 0x20000800)
T13A0 000:540.995 - 0.014ms returns 0
T13A0 000:541.005 JLINK_WriteReg(R14, 0x20000001)
T13A0 000:541.014 - 0.012ms returns 0
T13A0 000:541.023 JLINK_WriteReg(R15 (PC), 0x2000016A)
T13A0 000:541.032 - 0.013ms returns 0
T13A0 000:541.042 JLINK_WriteReg(XPSR, 0x01000000)
T13A0 000:541.057 - 0.022ms returns 0
T13A0 000:541.071 JLINK_WriteReg(MSP, 0x20000800)
T13A0 000:541.079 - 0.012ms returns 0
T13A0 000:541.089 JLINK_WriteReg(PSP, 0x20000800)
T13A0 000:541.098 - 0.012ms returns 0
T13A0 000:541.108 JLINK_WriteReg(CFBP, 0x00000000)
T13A0 000:541.116 - 0.012ms returns 0
T13A0 000:541.126 JLINK_SetBPEx(Addr = 0x20000000, Type = 0xFFFFFFF2)
T13A0 000:541.137 - 0.014ms returns 0x0000000E
T13A0 000:541.147 JLINK_Go()
T13A0 000:541.165   CPU_ReadMem(4 bytes @ 0xE0001000)
T13A0 000:542.071   CPU_WriteMem(4 bytes @ 0xE0001000)
T13A0 000:548.613 - 7.492ms
T13A0 000:548.652 JLINK_IsHalted()
T13A0 000:549.660 - 1.023ms returns FALSE
T13A0 000:549.687 JLINK_HasError()
T13A0 000:551.219 JLINK_IsHalted()
T13A0 000:557.481   CPU_ReadMem(2 bytes @ 0x20000000)
T13A0 000:558.117 - 6.912ms returns TRUE
T13A0 000:558.141 JLINK_ReadReg(R15 (PC))
T13A0 000:558.154 - 0.015ms returns 0x20000000
T13A0 000:558.162 JLINK_ClrBPEx(BPHandle = 0x0000000E)
T13A0 000:558.169 - 0.010ms returns 0x00
T13A0 000:558.177 JLINK_ReadReg(R0)
T13A0 000:558.184 - 0.010ms returns 0x00000000
T13A0 000:558.251 JLINK_WriteMem(0x20000290, 0x80 Bytes, ...)
T13A0 000:558.258   Data:  9C 48 00 68 02 99 8A 00 95 49 89 58 C9 88 9A 4A ...
T13A0 000:558.276   CPU_WriteMem(128 bytes @ 0x20000290)
T13A0 000:560.589 - 2.363ms returns 0x80
T13A0 000:560.627 JLINK_HasError()
T13A0 000:560.638 JLINK_WriteReg(R0, 0x08000500)
T13A0 000:560.652 - 0.017ms returns 0
T13A0 000:560.660 JLINK_WriteReg(R1, 0x00000080)
T13A0 000:560.666 - 0.009ms returns 0
T13A0 000:560.673 JLINK_WriteReg(R2, 0x20000290)
T13A0 000:560.680 - 0.009ms returns 0
T13A0 000:560.687 JLINK_WriteReg(R3, 0x00000000)
T13A0 000:560.693 - 0.009ms returns 0
T13A0 000:560.700 JLINK_WriteReg(R4, 0x00000000)
T13A0 000:560.706 - 0.009ms returns 0
T13A0 000:560.713 JLINK_WriteReg(R5, 0x00000000)
